
**** 04/25/20 06:48:42 ********* PSpice 9.2 (Mar 2000) ******** ID# 0 ********

 ** Profile: "SCHEMATIC1-DEL_recent"  [ C:\Program Files\Orcad\Files\del_recent-SCHEMATIC1-DEL_recent.sim ] 


 ****     CIRCUIT DESCRIPTION


******************************************************************************




** Creating circuit file "del_recent-SCHEMATIC1-DEL_recent.sim.cir" 
** WARNING: THIS AUTOMATICALLY GENERATED FILE MAY BE OVERWRITTEN BY SUBSEQUENT SIMULATIONS

*Libraries: 
* Local Libraries :
* From [PSPICE NETLIST] section of C:\Program Files\Orcad\PSpice\PSpice.ini file:
.lib "nom.lib" 

*Analysis directives: 
.PROBE V(*) I(*) W(*) D(*) NOISE(*) 
.INC ".\del_recent-SCHEMATIC1.net" 



**** INCLUDING del_recent-SCHEMATIC1.net ****
* source DEL_RECENT
R_R3         N00579 N00834  1k  
R_R4         0 N00864  1k  
V_V2         N00579 0 20Vdc
C_C2         N00864 N00834  1n  

**** RESUMING del_recent-SCHEMATIC1-DEL_recent.sim.cir ****
.END

**** 04/25/20 06:48:42 ********* PSpice 9.2 (Mar 2000) ******** ID# 0 ********

 ** Profile: "SCHEMATIC1-DEL_recent"  [ C:\Program Files\Orcad\Files\del_recent-SCHEMATIC1-DEL_recent.sim ] 


 ****     SMALL SIGNAL BIAS SOLUTION       TEMPERATURE =   27.000 DEG C


******************************************************************************



 NODE   VOLTAGE     NODE   VOLTAGE     NODE   VOLTAGE     NODE   VOLTAGE


(N00579)   20.0000 (N00834)   20.0000 (N00864)    0.0000 




    VOLTAGE SOURCE CURRENTS
    NAME         CURRENT

    V_V2         0.000E+00

    TOTAL POWER DISSIPATION   0.00E+00  WATTS



          JOB CONCLUDED

          TOTAL JOB TIME            0.00
