
**** 12/09/19 21:12:32 ********* PSpice 9.2 (Mar 2000) ******** ID# 0 ********

 ** Profile: "SCHEMATIC1-tf_parab"  [ C:\Program Files\Orcad\Files\tf_lag_parabolic_tune-SCHEMATIC1-tf_parab.sim ] 


 ****     CIRCUIT DESCRIPTION


******************************************************************************




** Creating circuit file "tf_lag_parabolic_tune-SCHEMATIC1-tf_parab.sim.cir" 
** WARNING: THIS AUTOMATICALLY GENERATED FILE MAY BE OVERWRITTEN BY SUBSEQUENT SIMULATIONS

*Libraries: 
* Local Libraries :
* From [PSPICE NETLIST] section of C:\Program Files\Orcad\PSpice\PSpice.ini file:
.lib "nom.lib" 

*Analysis directives: 
.AC DEC 100 10 100k
.PROBE V(*) I(*) W(*) D(*) NOISE(*) 
.INC ".\tf_lag_parabolic_tune-SCHEMATIC1.net" 



**** INCLUDING tf_lag_parabolic_tune-SCHEMATIC1.net ****
* source TF_LAG_PARABOLIC_TUNE
R_R12         N106294 N41779  1k  
V_V12         N516303 0 15
X_U2A         N40893 N40209 N40695 N405034 N40209 LM324
C_C2         N40893 0  10.41u  
V_V3         N402970 0 -15
R_R2         N41145 N40987  1k  
V_V4         N106294 0  
+PULSE 0 10 0 10 10 1 30
X_inv_A         0 N51858 N516303 N516304 N51916 LM324
V_V18         N574693 0 15
V_V15         N516304 0 -15
R_R1         N40209 N41145  1k  
R_R5         N40987 N60093  100000k  
R_R9         N60349 N40393  1k  
V_V17         N71422 0 -15
C_C3         N41779 N41775  500u  
R_R10         N40393 N40893  1k  
R_R4         0 N40217  1k  
X_U4A         0 N60093 N574693 N71422 N60260 LM324
R_R3         N51916 N40217  1k  
C_C6         N40987 N60093  10u  
R_R6         N60093 N60260  1900000k  
C_C1         N40393 N40209  .1667m  
R_R11         N41775 N51858  1k  
X_int_C_A         0 N41779 N418433 N418434 N41775 LM324
X_U5A         0 N57694 N575153 N73077 N60349 LM324
C_C7         N60093 N60260  10u  
R_R7         N57694 N60349  16k  
V_V161         N418434 0 -15
X_U3A         N40217 N41145 N40791 N402970 N40987 LM324
V_V2         N40791 0 15
R_R13         N51858 N51916  1k  
R_R8         N60260 N57694  10k  
V_V171         N418433 0 15
V_V13         N405034 0 -15
R_R14         0 N41775  1k  
V_V16         N575153 0 15
V_V14         N40695 0 15
V_V77         N73077 0 -15

**** RESUMING tf_lag_parabolic_tune-SCHEMATIC1-tf_parab.sim.cir ****
.END

**** 12/09/19 21:12:32 ********* PSpice 9.2 (Mar 2000) ******** ID# 0 ********

 ** Profile: "SCHEMATIC1-tf_parab"  [ C:\Program Files\Orcad\Files\tf_lag_parabolic_tune-SCHEMATIC1-tf_parab.sim ] 


 ****     Diode MODEL PARAMETERS


******************************************************************************




               X_U2A.dx        X_U2A.dy        X_inv_A.dx      X_inv_A.dy      
          IS  800.000000E-18  800.000000E-18  800.000000E-18  800.000000E-18 
          RS    1               1.000000E-03    1               1.000000E-03 
         CJO                   10.000000E-12                   10.000000E-12 


               X_U4A.dx        X_U4A.dy        X_int_C_A.dx    X_int_C_A.dy    
          IS  800.000000E-18  800.000000E-18  800.000000E-18  800.000000E-18 
          RS    1               1.000000E-03    1               1.000000E-03 
         CJO                   10.000000E-12                   10.000000E-12 


               X_U5A.dx        X_U5A.dy        X_U3A.dx        X_U3A.dy        
          IS  800.000000E-18  800.000000E-18  800.000000E-18  800.000000E-18 
          RS    1               1.000000E-03    1               1.000000E-03 
         CJO                   10.000000E-12                   10.000000E-12 


**** 12/09/19 21:12:32 ********* PSpice 9.2 (Mar 2000) ******** ID# 0 ********

 ** Profile: "SCHEMATIC1-tf_parab"  [ C:\Program Files\Orcad\Files\tf_lag_parabolic_tune-SCHEMATIC1-tf_parab.sim ] 


 ****     BJT MODEL PARAMETERS


******************************************************************************




               X_U2A.qx        X_inv_A.qx      X_U4A.qx        X_int_C_A.qx    
               PNP             PNP             PNP             PNP             
          IS  800.000000E-18  800.000000E-18  800.000000E-18  800.000000E-18 
          BF  166.7           166.7           166.7           166.7          
          NF    1               1               1               1            
          BR    1               1               1               1            
          NR    1               1               1               1            
          CN    2.2             2.2             2.2             2.2          
           D     .52             .52             .52             .52         


               X_U5A.qx        X_U3A.qx        
               PNP             PNP             
          IS  800.000000E-18  800.000000E-18 
          BF  166.7           166.7          
          NF    1               1            
          BR    1               1            
          NR    1               1            
          CN    2.2             2.2          
           D     .52             .52         


**** 12/09/19 21:12:32 ********* PSpice 9.2 (Mar 2000) ******** ID# 0 ********

 ** Profile: "SCHEMATIC1-tf_parab"  [ C:\Program Files\Orcad\Files\tf_lag_parabolic_tune-SCHEMATIC1-tf_parab.sim ] 


 ****     Current Controlled Switch MODEL PARAMETERS


******************************************************************************




               X_U2A.sw2       X_U2A.sw1       X_U2A.sw3       X_U2A.sw4       
         RON    1               1               1               1            
        ROFF   10.000000E+06   10.000000E+06   10.000000E+06   10.000000E+06 
         ION    0              -1.000000E-06   -1.000000E-06    0            
        IOFF   -1.000000E-06    0               0              -1.000000E-06 


               X_inv_A.sw2     X_inv_A.sw1     X_inv_A.sw3     X_inv_A.sw4     
         RON    1               1               1               1            
        ROFF   10.000000E+06   10.000000E+06   10.000000E+06   10.000000E+06 
         ION    0              -1.000000E-06   -1.000000E-06    0            
        IOFF   -1.000000E-06    0               0              -1.000000E-06 


               X_U4A.sw2       X_U4A.sw1       X_U4A.sw3       X_U4A.sw4       
         RON    1               1               1               1            
        ROFF   10.000000E+06   10.000000E+06   10.000000E+06   10.000000E+06 
         ION    0              -1.000000E-06   -1.000000E-06    0            
        IOFF   -1.000000E-06    0               0              -1.000000E-06 


               X_int_C_A.sw2   X_int_C_A.sw1   X_int_C_A.sw3   X_int_C_A.sw4   
         RON    1               1               1               1            
        ROFF   10.000000E+06   10.000000E+06   10.000000E+06   10.000000E+06 
         ION    0              -1.000000E-06   -1.000000E-06    0            
        IOFF   -1.000000E-06    0               0              -1.000000E-06 


               X_U5A.sw2       X_U5A.sw1       X_U5A.sw3       X_U5A.sw4       
         RON    1               1               1               1            
        ROFF   10.000000E+06   10.000000E+06   10.000000E+06   10.000000E+06 
         ION    0              -1.000000E-06   -1.000000E-06    0            
        IOFF   -1.000000E-06    0               0              -1.000000E-06 


               X_U3A.sw2       X_U3A.sw1       X_U3A.sw3       X_U3A.sw4       
         RON    1               1               1               1            
        ROFF   10.000000E+06   10.000000E+06   10.000000E+06   10.000000E+06 
         ION    0              -1.000000E-06   -1.000000E-06    0            
        IOFF   -1.000000E-06    0               0              -1.000000E-06 


**** 12/09/19 21:12:32 ********* PSpice 9.2 (Mar 2000) ******** ID# 0 ********

 ** Profile: "SCHEMATIC1-tf_parab"  [ C:\Program Files\Orcad\Files\tf_lag_parabolic_tune-SCHEMATIC1-tf_parab.sim ] 


 ****     SMALL SIGNAL BIAS SOLUTION       TEMPERATURE =   27.000 DEG C


******************************************************************************



 NODE   VOLTAGE     NODE   VOLTAGE     NODE   VOLTAGE     NODE   VOLTAGE


(N40209)   14.3040 (N40217)    7.1482 (N40393)   14.3160 (N40695)   15.0000     

(N40791)   15.0000 (N40893)   14.3160 (N40987)    -.0124 (N41145)    7.1457     

(N41775)  -14.8640 (N41779) 44.81E-06 (N51858)    -.2837 (N51916)   14.2960     

(N57694)   -3.7203 (N60093)     .0794 (N60260)  -14.9940 (N60349)   14.3160     

(N71422)  -15.0000 (N73077)  -15.0000 (N106294)    0.0000                       

(N402970)  -15.0000                   (N405034)  -15.0000                       

(N418433)   15.0000                   (N418434)  -15.0000                       

(N516303)   15.0000                   (N516304)  -15.0000                       

(N574693)   15.0000                   (N575153)   15.0000                       

(X_U2A.6)    -.1214                   (X_U2A.7)   15.9170                       

(X_U2A.8)   15.9170                   (X_U2A.9)    0.0000                       

(X_U2A.a)   14.9680                   (X_U2A.b)    -.0323                       

(X_U3A.6) 104.9E-06                   (X_U3A.7)    -.3703                       

(X_U3A.8)    -.3703                   (X_U3A.9)    0.0000                       

(X_U3A.a)     .0072                   (X_U3A.b)  -14.9930                       

(X_U4A.6)    1.2034                   (X_U4A.7)  -17.0240                       

(X_U4A.8)  -17.0240                   (X_U4A.9)    0.0000                       

(X_U4A.a)     .0406                   (X_U4A.b)  -14.9590                       

(X_U5A.6)   -1.5415                   (X_U5A.7)   16.3460                       

(X_U5A.8)   16.3460                   (X_U5A.9)    0.0000                       

(X_U5A.a)   14.9590                   (X_U5A.b)    -.0406                       

(X_U2A.10)   14.9140                  (X_U2A.11)  -14.9580                      

(X_U2A.12)  -14.9690                  (X_U2A.13)   14.8990                      

(X_U2A.14)   14.9030                  (X_U2A.53)   13.5000                      

(X_U2A.54)  -14.1780                  (X_U2A.90)   32.2570                      

(X_U2A.91)   40.0000                  (X_U2A.92)  -40.0000                      

(X_U2A.99)    0.0000                  (X_U3A.10)    7.7532                      

(X_U3A.11)  -14.9610                  (X_U3A.12)  -14.9630                      

(X_U3A.13)    7.7394                  (X_U3A.14)    7.7403                      

(X_U3A.53)   13.5000                  (X_U3A.54)  -14.1780                      

(X_U3A.90)   -7.1581                  (X_U3A.91)   40.0000                      

(X_U3A.92)  -40.0000                  (X_U3A.99)    0.0000                      

(X_U4A.10)     .6340                  (X_U4A.11)  -14.9920                      

(X_U4A.12)  -14.9290                  (X_U4A.13)     .6313                      

(X_U4A.14)     .6090                  (X_U4A.53)   13.5000                      

(X_U4A.54)  -14.1780                  (X_U4A.90)  -40.6030                      

(X_U4A.91)   40.0000                  (X_U4A.92)  -40.0000                      

(X_U4A.99)    0.0000                  (X_U5A.10)   -3.0798                      

(X_U5A.11)  -14.9190                  (X_U5A.12)  -15.0000                      

(X_U5A.13)   -3.1081                  (X_U5A.14)   -3.0798                      

(X_U5A.53)   13.5000                  (X_U5A.54)  -14.1780                      

(X_U5A.90)   40.6110                  (X_U5A.91)   40.0000                      

(X_U5A.92)  -40.0000                  (X_U5A.99)    0.0000                      

(X_inv_A.6)   -1.4950                 (X_inv_A.7)   16.3270                     

(X_inv_A.8)   16.3270                 (X_inv_A.9)    0.0000                     

(X_inv_A.a)   14.9590                 (X_inv_A.b)    -.0406                     

(X_inv_A.10)     .3559                (X_inv_A.11)  -14.9210                    

(X_inv_A.12)  -15.0000                (X_inv_A.13)     .3281                    

(X_inv_A.14)     .3559                (X_inv_A.53)   13.5000                    

(X_inv_A.54)  -14.1780                (X_inv_A.90)   40.6120                    

(X_inv_A.91)   40.0000                (X_inv_A.92)  -40.0000                    

(X_inv_A.99)    0.0000                (X_int_C_A.6)     .0045                   

(X_int_C_A.7)  -16.3490               (X_int_C_A.8)  -16.3490                   

(X_int_C_A.9)    0.0000               (X_int_C_A.a)     .0297                   

(X_int_C_A.b)  -14.9700               (X_int_C_A.10)     .6077                  

(X_int_C_A.11)  -14.9600              (X_int_C_A.12)  -14.9600                  

(X_int_C_A.13)     .5938              (X_int_C_A.14)     .5938                  

(X_int_C_A.53)   13.5000              (X_int_C_A.54)  -14.1780                  

(X_int_C_A.90)  -29.7070              (X_int_C_A.91)   40.0000                  

(X_int_C_A.92)  -40.0000              (X_int_C_A.99)    0.0000              




    VOLTAGE SOURCE CURRENTS
    NAME         CURRENT

    V_V12       -2.505E-02
    V_V3         1.048E-02
    V_V4         4.481E-08
    V_V18       -3.320E-03
    V_V15        3.320E-03
    V_V17        4.447E-03
    V_V161       3.276E-02
    V_V2        -3.320E-03
    V_V171      -3.320E-03
    V_V13        3.319E-03
    V_V16       -4.447E-03
    V_V14       -1.048E-02
    V_V77        3.320E-03
    X_U2A.vb    -1.214E-06
    X_U2A.vc    -2.510E-02
    X_U2A.ve     2.910E-11
    X_U2A.vlim   3.226E-02
    X_U2A.vlp   -7.744E-12
    X_U2A.vln   -7.226E-11
    X_inv_A.vb  -1.495E-05
    X_inv_A.vc  -1.888E-02
    X_inv_A.ve   2.910E-11
    X_inv_A.vlim   4.061E-02
    X_inv_A.vlp   1.488E-05
    X_inv_A.vln  -8.062E-11
    X_U4A.vb     1.203E-05
    X_U4A.vc     2.849E-11
    X_U4A.ve    -3.948E-02
    X_U4A.vlim  -4.060E-02
    X_U4A.vlp   -8.060E-11
    X_U4A.vln    1.076E-05
    X_int_C_A.vb   4.466E-08
    X_int_C_A.vc   2.836E-11
    X_int_C_A.ve  -2.627E-04
    X_int_C_A.vlim  -2.971E-02
    X_int_C_A.vlp  -6.971E-11
    X_int_C_A.vln  -1.030E-11
    X_U5A.vb    -1.541E-05
    X_U5A.vc    -3.948E-02
    X_U5A.ve     2.910E-11
    X_U5A.vlim   4.061E-02
    X_U5A.vlp    1.435E-05
    X_U5A.vln   -8.061E-11
    X_U3A.vb     1.049E-09
    X_U3A.vc     1.351E-11
    X_U3A.ve     1.455E-11
    X_U3A.vlim  -7.158E-03
    X_U3A.vlp   -4.716E-11
    X_U3A.vln   -3.285E-11

    TOTAL POWER DISSIPATION   1.77E+00  WATTS


WARNING -- No AC sources -- AC Sweep ignored

          JOB CONCLUDED

          TOTAL JOB TIME             .08
